(1578926829.816750) can0 0CF00400#697E8C1C3500F48D
(1578926829.826750) can0 0CF00400#297D87F23400F487
(1578926829.836800) can0 0CF00400#197D83B73400F483
(1578926829.846750) can0 0CF00400#097D7F6A3400F47F
(1578926829.856850) can0 0CF00400#097D7D133400F47D
(1578926829.867200) can0 0CF00400#097D7DAC3300F47D
(1578926829.868950) can0 18FEF100#C300134000000030
(1578926829.876850) can0 0CF00400#017D7D3D3300F47D
(1578926829.886800) can0 0CF00400#017D7DCC3200F47D
(1578926829.896800) can0 0CF00400#017D7D5D3200F47D
(1578926829.907300) can0 0CF00400#017D7D0E3200F47D
(1578926829.916750) can0 0CF00400#017D7DBA3100F47D
(1578926829.926750) can0 0CF00400#017D7D773100F47D
(1578926829.936850) can0 0CF00400#017D7D3D3100F47D
(1578926829.946800) can0 0CF00400#017D7D083100F47D
(1578926829.956900) can0 0CF00400#017D7DDA3000F47D
(1578926829.967300) can0 0CF00400#017D7DA43000F47D
(1578926829.969000) can0 18FEF100#C352134000000030
(1578926829.976850) can0 0CF00400#017D7D693000F47D
(1578926829.986850) can0 0CF00400#017D7D443000F47D
(1578926829.996800) can0 0CF00400#017D7D0F3000F47D
(1578926830.007900) can0 0CF00400#017D7DD12F00F47D
(1578926830.017200) can0 0CF00400#017D7D9B2F00F47D
(1578926830.026900) can0 0CF00400#017D7D732F00F47D
(1578926830.036900) can0 0CF00400#017D7D3F2F00F47D
(1578926830.046800) can0 0CF00400#017D7D082F00F47D
(1578926830.056950) can0 0CF00400#017D7DCF2E00F47D
(1578926830.067400) can0 0CF00400#017D7DA12E00F47D
(1578926830.069150) can0 18FEF100#C366144000000030
(1578926830.076950) can0 0CF00400#017D7D712E00F47D
(1578926830.086950) can0 0CF00400#017D7D3A2E00F47D
(1578926830.096900) can0 0CF00400#017D7D052E00F47D
(1578926830.107500) can0 0CF00400#017D7DDD2D00F47D
(1578926830.116900) can0 0CF00400#017D7DAC2D00F47D
(1578926830.126800) can0 0CF00400#017D7D732D00F47D
(1578926830.137000) can0 0CF00400#017D7D412D00F47D
(1578926830.146800) can0 0CF00400#017D7D1A2D00F47D
(1578926830.156900) can0 0CF00400#017D7DE92C00F47D
(1578926830.167450) can0 0CF00400#017D7DB72C00F47D
(1578926830.169200) can0 18FEF100#C3CE134000000030
(1578926830.176900) can0 0CF00400#017D7D852C00F47D
(1578926830.186850) can0 0CF00400#017D7D5A2C00F47D
(1578926830.196950) can0 0CF00400#017D7D2F2C00F47D
(1578926830.207300) can0 0CF00400#017D7DF72B00F47D
(1578926830.216800) can0 0CF00400#017D7DC62B00F47D
(1578926830.226800) can0 0CF00400#017D7D9F2B00F47D
(1578926830.236900) can0 0CF00400#017D7D732B00F47D
(1578926830.247400) can0 0CF00400#017D7D3B2B00F47D
(1578926830.256900) can0 0CF00400#017D7D0D2B00F47D
(1578926830.267550) can0 0CF00400#017D7DDF2A00F47D
(1578926830.269300) can0 18FEF100#C368144000000030
(1578926830.276850) can0 0CF00400#017D7DBB2A00F47D
(1578926830.286850) can0 0CF00400#017D7D8F2A00F47D
(1578926830.296900) can0 0CF00400#017D7D5D2A00F47D
(1578926830.307350) can0 0CF00400#017D7D312A00F47D
(1578926830.316800) can0 0CF00400#017D7D062A00F47D
(1578926830.326800) can0 0CF00400#017D7DDC2900F47D
(1578926830.336900) can0 0CF00400#017D7DAF2900F47D
(1578926830.346900) can0 0CF00400#017D7D852900F47D
(1578926830.356900) can0 0CF00400#017D7D542900F47D
(1578926830.367600) can0 0CF00400#017D7D332900F47D
(1578926830.369300) can0 18FEF100#C33E144000000030
(1578926830.376900) can0 0CF00400#017D7D0A2900F47D
(1578926830.386850) can0 0CF00400#017D7DD72800F47D
(1578926830.396900) can0 0CF00400#017D7DAE2800F47D
(1578926830.407350) can0 0CF00400#017D7D852800F47D
(1578926830.416800) can0 0CF00400#017E7D612800F47D
(1578926830.426800) can0 0CF00400#01807D312800F47D
(1578926830.436850) can0 0CF00400#01827D092800F47D
(1578926830.446850) can0 0CF00400#51837DDC2700F47E
(1578926830.456900) can0 0CF00400#61857FBB2700F480
(1578926830.467050) can0 0CF00400#518681932700F482
(1578926830.469350) can0 18FEF100#C358144000000030
(1578926830.476850) can0 0CF00400#218783662700F483
(1578926830.486850) can0 0CF00400#618884452700F485
(1578926830.496900) can0 0CF00400#0089862E2700F486
(1578926830.507400) can0 0CF00400#2188871C2700F487
(1578926830.516800) can0 0CF00400#1186881B2700F488
(1578926830.526800) can0 0CF00400#708588182700F489
(1578926830.536850) can0 0CF00400#4084871C2700F487
(1578926830.546850) can0 0CF00400#2081861F2700F486
(1578926830.556900) can0 0CF00400#107F852D2700F485
(1578926830.567100) can0 0CF00400#117D84372700F484
(1578926830.569350) can0 18FEF100#C36E144000000030
(1578926830.576850) can0 0CF00400#117D813B2700F481
(1578926830.586850) can0 0CF00400#417D7E492700F47F
(1578926830.596850) can0 0CF00400#017D7D452700F47D
(1578926830.607350) can0 0CF00400#017D7D382700F47D
(1578926830.616800) can0 0CF00400#017D7D1F2700F47D
(1578926830.626850) can0 0CF00400#017D7DFB2600F47D
(1578926830.636900) can0 0CF00400#017D7DCE2600F47D
(1578926830.646850) can0 0CF00400#017D7DAE2600F47D
(1578926830.656900) can0 0CF00400#017D7D8D2600F47D
(1578926830.667100) can0 0CF00400#017D7D5C2600F47D
(1578926830.669350) can0 18FEF100#C37C144000000030
(1578926830.676900) can0 0CF00400#017D7D3B2600F47D
(1578926830.686850) can0 0CF00400#017D7D172600F47D
(1578926830.696850) can0 0CF00400#017D7DF12500F47D
(1578926830.707350) can0 0CF00400#017D7DC62500F47D
(1578926830.716800) can0 0CF00400#017D7DA42500F47D
(1578926830.726800) can0 0CF00400#017D7D802500F47D
(1578926830.736900) can0 0CF00400#017D7D5C2500F47D
(1578926830.746850) can0 0CF00400#017D7D382500F47D
(1578926830.756900) can0 0CF00400#017D7D142500F47D
(1578926830.767250) can0 0CF00400#017D7DE92400F47D
(1578926830.769550) can0 18FEF100#C35E144000000030
(1578926830.776900) can0 0CF00400#017D7DC42400F47D
(1578926830.786900) can0 0CF00400#017D7DA42400F47D
(1578926830.796900) can0 0CF00400#017D7D802400F47D
(1578926830.807350) can0 0CF00400#017D7D542400F47D
(1578926830.816850) can0 0CF00400#017D7D312400F47D
(1578926830.826850) can0 0CF00400#017D7D162400F47D
(1578926830.836900) can0 0CF00400#017D7DF42300F47D
(1578926830.846850) can0 0CF00400#017D7DD12300F47D
(1578926830.856950) can0 0CF00400#017D7DB22300F47D
(1578926830.867100) can0 0CF00400#017D7D942300F47D
(1578926830.869350) can0 18FEF100#C3B2144000000030
(1578926830.876900) can0 0CF00400#017D7D6E2300F47D
(1578926830.886850) can0 0CF00400#017D7D522300F47D
(1578926830.896900) can0 0CF00400#017D7D362300F47D
(1578926830.907350) can0 0CF00400#017D7D122300F47D
(1578926830.916850) can0 0CF00400#017D7DED2200F47D
(1578926830.926850) can0 0CF00400#017D7DCA2200F47D
(1578926830.936900) can0 0CF00400#017D7DAA2200F47D
(1578926830.946850) can0 0CF00400#017D7D8E2200F47D
(1578926830.956950) can0 0CF00400#017D7D6D2200F47D
(1578926830.967150) can0 0CF00400#017D7D482200F47D
(1578926830.969450) can0 18FEF100#C3A6144000000030
(1578926830.976950) can0 0CF00400#017D7D242200F47D
(1578926830.986900) can0 0CF00400#017D7D062200F47D
(1578926830.996900) can0 0CF00400#017D7DE82100F47D
(1578926831.008000) can0 0CF00400#017D7DC82100F47D
(1578926831.017300) can0 0CF00400#017D7DA42100F47D
(1578926831.026950) can0 0CF00400#017D7D802100F47D
(1578926831.036950) can0 0CF00400#017D7D642100F47D
(1578926831.046900) can0 0CF00400#017D7D462100F47D
(1578926831.057000) can0 0CF00400#017D7D262100F47D
(1578926831.067150) can0 0CF00400#017D7D062100F47D
(1578926831.069450) can0 18FEF100#C390144000000030
(1578926831.077050) can0 0CF00400#017D7DDD2000F47D
(1578926831.087000) can0 0CF00400#017D7DC02000F47D
(1578926831.097000) can0 0CF00400#017D7DA42000F47D
(1578926831.107550) can0 0CF00400#017D7D8C2000F47D
(1578926831.116950) can0 0CF00400#017D7D6C2000F47D
(1578926831.126900) can0 0CF00400#017D7D3D2000F47D
(1578926831.137100) can0 0CF00400#017D7D1A2000F47D
(1578926831.146950) can0 0CF00400#017D7DFA1F00F47D
(1578926831.156950) can0 0CF00400#017D7DDD1F00F47D
(1578926831.167150) can0 0CF00400#017D7DBD1F00F47D
(1578926831.169450) can0 18FEF100#C35A144000000030
(1578926831.176950) can0 0CF00400#017D7DA01F00F47D
(1578926831.186900) can0 0CF00400#017D7D801F00F47D
(1578926831.197000) can0 0CF00400#017D7D5A1F00F47D
(1578926831.207400) can0 0CF00400#017D7D341F00F47D
(1578926831.216850) can0 0CF00400#017D7D161F00F47D
(1578926831.226850) can0 0CF00400#017D7DFD1E00F47D
(1578926831.236950) can0 0CF00400#017D7DDD1E00F47D
(1578926831.246850) can0 0CF00400#017D7DB41E00F47D
(1578926831.256950) can0 0CF00400#017D7D921E00F47D
(1578926831.267150) can0 0CF00400#017D7D781E00F47D
(1578926831.269450) can0 18FEF100#C34C144000000030
(1578926831.276900) can0 0CF00400#017D7D611E00F47D
(1578926831.286850) can0 0CF00400#017D7D401E00F47D
(1578926831.296900) can0 0CF00400#017D7D201E00F47D
(1578926831.307400) can0 0CF00400#017D7D011E00F47D
(1578926831.316850) can0 0CF00400#017D7DE41D00F47D
(1578926831.326850) can0 0CF00400#017D7DBD1D00F47D
(1578926831.336950) can0 0CF00400#017D7DA01D00F47D
(1578926831.347100) can0 0CF00400#017D7D811D00F47D
(1578926831.356950) can0 0CF00400#017E7D661D00F47D
(1578926831.367150) can0 0CF00400#01817D411D00F47D
(1578926831.369450) can0 18FEF100#C34C144000000030
(1578926831.376900) can0 0CF00400#01847D211D00F47D
(1578926831.386850) can0 0CF00400#408A7EFD1C00F47E
(1578926831.396900) can0 0CF00400#508F80E11C00F481
(1578926831.407400) can0 0CF00400#509482CA1C00F483
(1578926831.416800) can0 0CF00400#709884B31C00F485
(1578926831.426800) can0 0CF00400#119C87A11C00F487
(1578926831.436900) can0 0CF00400#21A18B921C00F48B
(1578926831.446850) can0 0CF00400#21A68F8C1C00F48F
(1578926831.456950) can0 0CF00400#51AA918A1C00F492
(1578926831.467100) can0 0CF00400#71AE938C1C00F494
(1578926831.469400) can0 18FEF100#C360144000000030
(1578926831.476950) can0 0CF00400#11B296961C00F496
(1578926831.486900) can0 0CF00400#31B598C01C00F498
(1578926831.496900) can0 0CF00400#51B89AF81C00F49B
(1578926831.507450) can0 0CF00400#01BB9D331D00F49D
(1578926831.516850) can0 0CF00400#21BD9F811D00F49F
(1578926831.526800) can0 0CF00400#41BFA1DC1D00F4A2
(1578926831.536950) can0 0CF00400#71C0A3411E00F4A4
(1578926831.547200) can0 0CF00400#11C1A6B81E00F4A6
(1578926831.556900) can0 0CF00400#31C2A83A1F00F4A8
(1578926831.567150) can0 0CF00400#61C2AACA1F00F4AB
(1578926831.569450) can0 18FEF100#C35E144000000030
(1578926831.576950) can0 0CF00400#01C3AD4E2000F4AD
(1578926831.586900) can0 0CF00400#31C3AFE42000F4AF
(1578926831.596900) can0 0CF00400#61C3B17A2100F4B2
(1578926831.607350) can0 0CF00400#01BAB4322200F4B4
(1578926831.616900) can0 0CF00400#31B2B6DC2200F4B6
(1578926831.626850) can0 0CF00400#61ABB8862300F4B9
(1578926831.636950) can0 0CF00400#51A4BA4A2400F4BB
(1578926831.646900) can0 0CF00400#219EB2162500F4B2
(1578926831.657000) can0 0CF00400#2197ABE92500F4AB
(1578926831.667100) can0 0CF00400#6192A4C92600F4A5
(1578926831.669450) can0 18FEF100#C37A144000000030
(1578926831.676950) can0 0CF00400#118C9E972700F49E
(1578926831.686900) can0 0CF00400#5188975F2800F498
(1578926831.696900) can0 0CF00400#718491032900F492
(1578926831.707450) can0 0CF00400#60808C712900F48D
(1578926831.716850) can0 0CF00400#317D88CD2900F488
(1578926831.726850) can0 0CF00400#217D84052A00F484
(1578926831.736950) can0 0CF00400#617D801D2A00F481
(1578926831.747350) can0 0CF00400#517D7E232A00F47F
(1578926831.757000) can0 0CF00400#217D7D182A00F47D
(1578926831.767300) can0 0CF00400#217D7D052A00F47D
(1578926831.769600) can0 18FEF100#C35E144000000030
(1578926831.777000) can0 0CF00400#017D7DE32900F47D
(1578926831.786950) can0 0CF00400#017D7DC52900F47D
(1578926831.796950) can0 0CF00400#017D7D9F2900F47D
(1578926831.807400) can0 0CF00400#017D7D7B2900F47D
(1578926831.816900) can0 0CF00400#017D7D572900F47D
(1578926831.826900) can0 0CF00400#017D7D2F2900F47D
(1578926831.836950) can0 0CF00400#017D7D052900F47D
(1578926831.846900) can0 0CF00400#017D7DDF2800F47D
(1578926831.857000) can0 0CF00400#017D7DC12800F47D
(1578926831.867150) can0 0CF00400#017D7D932800F47D
(1578926831.869450) can0 18FEF100#C36A144000000030
(1578926831.876950) can0 0CF00400#017D7D692800F47D
(1578926831.886950) can0 0CF00400#017D7D452800F47D
(1578926831.896950) can0 0CF00400#017D7D1F2800F47D
(1578926831.907450) can0 0CF00400#017D7DF32700F47D
(1578926831.916900) can0 0CF00400#017D7DCE2700F47D
(1578926831.926900) can0 0CF00400#017D7DA62700F47D
(1578926831.937000) can0 0CF00400#017D7D7B2700F47D
(1578926831.947500) can0 0CF00400#017D7D5C2700F47D
(1578926831.957000) can0 0CF00400#017D7D342700F47D
(1578926831.967250) can0 0CF00400#017D7D0D2700F47D
(1578926831.969550) can0 18FEF100#C37A134000000030
(1578926831.977000) can0 0CF00400#017D7DF12600F47D
(1578926831.987000) can0 0CF00400#017D7DD82600F47D
(1578926831.996950) can0 0CF00400#017D7DBF2600F47D
(1578926832.008050) can0 0CF00400#017D7DAD2600F47D
(1578926832.017400) can0 0CF00400#017D7DA92600F47D
(1578926832.027050) can0 0CF00400#017D7DAA2600F47D
(1578926832.037050) can0 0CF00400#017D7DB12600F47D
(1578926832.046950) can0 0CF00400#017D7DC32600F47D
(1578926832.057600) can0 0CF00400#017D7DDF2600F47D
(1578926832.067250) can0 0CF00400#017D7DF72600F47D
(1578926832.069500) can0 18FEF100#C3C0134000000030
(1578926832.077100) can0 0CF00400#017D7D232700F47D
(1578926832.087050) can0 0CF00400#017D7D4E2700F47D
(1578926832.097050) can0 0CF00400#017D7D782700F47D
(1578926832.108200) can0 0CF00400#017D7DA52700F47D
(1578926832.117050) can0 0CF00400#017D7DD82700F47D
(1578926832.126900) can0 0CF00400#017D7D092800F47D
(1578926832.137150) can0 0CF00400#017D7D3C2800F47D
(1578926832.146950) can0 0CF00400#017D7D6D2800F47D
(1578926832.157050) can0 0CF00400#017D7D942800F47D
(1578926832.167250) can0 0CF00400#017D7DBB2800F47D
(1578926832.169550) can0 18FEF100#C38C144000000030
(1578926832.177000) can0 0CF00400#017D7DE12800F47D
(1578926832.187000) can0 0CF00400#017D7D052900F47D
(1578926832.197050) can0 0CF00400#017D7D142900F47D
(1578926832.208050) can0 0CF00400#017D7D252900F47D
(1578926832.216900) can0 0CF00400#017D7D2F2900F47D
(1578926832.226950) can0 0CF00400#017D7D382900F47D
(1578926832.237050) can0 0CF00400#017D7D372900F47D
(1578926832.246950) can0 0CF00400#017D7D2F2900F47D
(1578926832.257500) can0 0CF00400#017D7D212900F47D
(1578926832.267250) can0 0CF00400#017D7D0F2900F47D
(1578926832.269550) can0 18FEF100#C370144000000030
(1578926832.277000) can0 0CF00400#017D7DFC2800F47D
(1578926832.287000) can0 0CF00400#017F7DE52800F47D
(1578926832.297000) can0 0CF00400#01817DC62800F47D
(1578926832.308000) can0 0CF00400#01847DA52800F47D
(1578926832.316950) can0 0CF00400#71877E8A2800F47F
(1578926832.326950) can0 0CF00400#7189806D2800F481
(1578926832.337150) can0 0CF00400#108B83492800F483
(1578926832.346950) can0 0CF00400#308D853B2800F485
(1578926832.357500) can0 0CF00400#408F87292800F488
(1578926832.367300) can0 0CF00400#6190891C2800F48A
(1578926832.368450) can0 18FEF100#C326144000000030
(1578926832.377000) can0 0CF00400#01928D1F2800F48D
(1578926832.386950) can0 0CF00400#61938E292800F48F
(1578926832.396950) can0 0CF00400#219490342800F490
(1578926832.408150) can0 0CF00400#519591572800F492
(1578926832.416900) can0 0CF00400#7195928D2800F493
(1578926832.426900) can0 0CF00400#719693BC2800F494
(1578926832.437000) can0 0CF00400#519794F12800F495
(1578926832.446950) can0 0CF00400#319895332900F495
(1578926832.457400) can0 0CF00400#619895732900F496
(1578926832.467200) can0 0CF00400#519996AD2900F497
(1578926832.468400) can0 18FEF100#C388144000000030
(1578926832.477000) can0 0CF00400#519A97EF2900F498
(1578926832.486950) can0 0CF00400#419C98332A00F498
(1578926832.497000) can0 0CF00400#319E996D2A00F499
